T222C 000:007.947   SEGGER J-Link V7.92f Log File
T222C 000:008.028   DLL Compiled: Sep 20 2023 16:28:11
T222C 000:008.032   Logging started @ 2024-03-16 10:56
T222C 000:008.035   Process: D:\keil\core\UV4\UV4.exe
T222C 000:008.039 - 8.038ms
T222C 000:008.044 JLINK_SetWarnOutHandler(...)
T222C 000:008.047 - 0.003ms
T222C 000:008.050 JLINK_OpenEx(...)
T222C 000:010.485   Firmware: J-Link V9 compiled May  7 2021 16:26:12
T222C 000:011.339   Firmware: J-Link V9 compiled May  7 2021 16:26:12
T222C 000:011.457   Decompressing FW timestamp took 95 us
T222C 000:020.912   Hardware: V9.60
T222C 000:020.923   S/N: 69614050
T222C 000:020.928   OEM: SEGGER
T222C 000:020.932   Feature(s): GDB, RDI, FlashBP, FlashDL, JFlash
T222C 000:022.682   Bootloader: (Could not read)
T222C 000:024.527   TELNET listener socket opened on port 19021
T222C 000:024.607   WEBSRV WEBSRV_Init(): Starting webserver thread(s)
T222C 000:024.742   WEBSRV Webserver running on local port 19080
T222C 000:024.806   Looking for J-Link GUI Server exe at: D:\keil\core\ARM\Segger\JLinkGUIServer.exe
T222C 000:024.864   Looking for J-Link GUI Server exe at: D:\jlink\jlinkInstall\JLink\JLinkGUIServer.exe
T222C 000:024.874   Forking J-Link GUI Server: D:\jlink\jlinkInstall\JLink\JLinkGUIServer.exe
T222C 000:026.969   J-Link GUI Server info: "J-Link GUI server V7.92f "
T222C 000:027.242 - 19.187ms returns "O.K."
T222C 000:027.266 JLINK_GetEmuCaps()
T222C 000:027.272 - 0.004ms returns 0xB9FF7BBF
T222C 000:027.279 JLINK_TIF_GetAvailable(...)
T222C 000:027.658 - 0.379ms
T222C 000:027.667 JLINK_SetErrorOutHandler(...)
T222C 000:027.670 - 0.003ms
T222C 000:027.685 JLINK_ExecCommand("ProjectFile = "D:\stm32\CtrlBoard-H7_4310\MDK-ARM\JLinkSettings.ini"", ...). 
T222C 000:037.931   Ref file found at: D:\keil\core\ARM\Segger\JLinkDevices.ref
T222C 000:037.980   REF file references invalid XML file: D:\jlink\jlinkInstall\JLink\JLinkDevices.xml
T222C 000:038.047 - 10.363ms returns 0x00
T222C 000:038.081 JLINK_ExecCommand("Device = STM32H723VGTx", ...). 
T222C 000:038.563   Flash bank @ 0x90000000: SFL: Parsing sectorization info from ELF file
T222C 000:038.570     FlashDevice.SectorInfo[0]: .SectorSize = 0x00010000, .SectorStartAddr = 0x00000000
T222C 000:041.845   Device "STM32H723VG" selected.
T222C 000:042.024 - 3.938ms returns 0x00
T222C 000:042.033 JLINK_ExecCommand("DisableConnectionTimeout", ...). 
T222C 000:042.038 - 0.001ms returns 0x01
T222C 000:042.043 JLINK_GetHardwareVersion()
T222C 000:042.048 - 0.003ms returns 96000
T222C 000:042.054 JLINK_GetDLLVersion()
T222C 000:042.057 - 0.003ms returns 79206
T222C 000:042.061 JLINK_GetOEMString(...)
T222C 000:042.065 JLINK_GetFirmwareString(...)
T222C 000:042.069 - 0.003ms
T222C 000:042.084 JLINK_GetDLLVersion()
T222C 000:042.087 - 0.003ms returns 79206
T222C 000:042.091 JLINK_GetCompileDateTime()
T222C 000:042.094 - 0.003ms
T222C 000:042.102 JLINK_GetFirmwareString(...)
T222C 000:042.105 - 0.003ms
T222C 000:042.122 JLINK_GetHardwareVersion()
T222C 000:042.125 - 0.003ms returns 96000
T222C 000:042.132 JLINK_GetSN()
T222C 000:042.135 - 0.003ms returns 69614050
T222C 000:042.141 JLINK_GetOEMString(...)
T222C 000:042.151 JLINK_TIF_Select(JLINKARM_TIF_SWD)
T222C 000:044.273 - 2.121ms returns 0x00
T222C 000:044.283 JLINK_HasError()
T222C 000:044.294 JLINK_SetSpeed(10000)
T222C 000:044.832 - 0.538ms
T222C 000:044.842 JLINK_GetId()
T222C 000:045.409   ConfigTargetSettings() start
T222C 000:045.419    J-Link Script File: Executing ConfigTargetSettings()
T222C 000:045.433   ConfigTargetSettings() end - Took 12us
T222C 000:045.441   InitTarget() start
T222C 000:045.445    J-Link Script File: Executing InitTarget()
T222C 000:045.914   SWD selected. Executing JTAG -> SWD switching sequence.
T222C 000:049.458   DAP initialized successfully.
T222C 000:068.162   InitTarget() end - Took 22.7ms
T222C 000:069.342   Found SW-DP with ID 0x6BA02477
T222C 000:073.044   DPIDR: 0x6BA02477
T222C 000:073.055   CoreSight SoC-400 or earlier
T222C 000:073.063   Scanning AP map to find all available APs
T222C 000:075.319   AP[3]: Stopped AP scan as end of AP map has been reached
T222C 000:075.334   AP[0]: AHB-AP (IDR: 0x84770001)
T222C 000:075.341   AP[1]: AHB-AP (IDR: 0x84770001)
T222C 000:075.347   AP[2]: APB-AP (IDR: 0x54770002)
T222C 000:075.354   Iterating through AP map to find AHB-AP to use
T222C 000:076.742   AP[0]: Core found
T222C 000:076.754   AP[0]: AHB-AP ROM base: 0xE00FE000
T222C 000:077.485   CPUID register: 0x411FC272. Implementer code: 0x41 (ARM)
T222C 000:078.170   Cache: L1 I/D-cache present
T222C 000:078.185   Found Cortex-M7 r1p2, Little endian.
T222C 000:079.175   -- Max. mem block: 0x00010C40
T222C 000:080.614   CPU_ReadMem(4 bytes @ 0xE000EDF0)
T222C 000:081.212   CPU_ReadMem(4 bytes @ 0xE0002000)
T222C 000:081.821   FPUnit: 8 code (BP) slots and 0 literal slots
T222C 000:081.831   CPU_ReadMem(4 bytes @ 0xE000EDFC)
T222C 000:082.446   CPU_WriteMem(4 bytes @ 0xE000EDFC)
T222C 000:083.012   CPU_ReadMem(4 bytes @ 0xE0001000)
T222C 000:083.602   CPU_WriteMem(4 bytes @ 0xE0001000)
T222C 000:084.306   CPU_ReadMem(4 bytes @ 0xE000ED88)
T222C 000:084.892   CPU_WriteMem(4 bytes @ 0xE000ED88)
T222C 000:085.490   CPU_ReadMem(4 bytes @ 0xE000ED88)
T222C 000:086.051   CPU_WriteMem(4 bytes @ 0xE000ED88)
T222C 000:086.581   CoreSight components:
T222C 000:086.592   ROMTbl[0] @ E00FE000
T222C 000:086.598   CPU_ReadMem(64 bytes @ 0xE00FE000)
T222C 000:087.402   CPU_ReadMem(32 bytes @ 0xE00FFFE0)
T222C 000:088.137   [0][0]: E00FF000 CID B105100D PID 000BB4C7 ROM Table
T222C 000:088.148   ROMTbl[1] @ E00FF000
T222C 000:088.153   CPU_ReadMem(64 bytes @ 0xE00FF000)
T222C 000:089.162   CPU_ReadMem(32 bytes @ 0xE000EFE0)
T222C 000:089.839   [1][0]: E000E000 CID B105E00D PID 000BB00C SCS-M7
T222C 000:089.848   CPU_ReadMem(32 bytes @ 0xE0001FE0)
T222C 000:090.571   [1][1]: E0001000 CID B105E00D PID 000BB002 DWT
T222C 000:090.580   CPU_ReadMem(32 bytes @ 0xE0002FE0)
T222C 000:091.346   [1][2]: E0002000 CID B105E00D PID 000BB00E FPB-M7
T222C 000:091.355   CPU_ReadMem(32 bytes @ 0xE0000FE0)
T222C 000:092.080   [1][3]: E0000000 CID B105E00D PID 000BB001 ITM
T222C 000:092.090   CPU_ReadMem(32 bytes @ 0xE0041FE0)
T222C 000:092.715   [0][1]: E0041000 CID B105900D PID 001BB975 ETM-M7
T222C 000:092.725   CPU_ReadMem(32 bytes @ 0xE0043FE0)
T222C 000:093.426   [0][2]: E0043000 CID B105900D PID 004BB906 CTI
T222C 000:093.436   CPU_WriteMem(4 bytes @ 0xE000ED84)
T222C 000:094.002   CPU_ReadMem(4 bytes @ 0xE000ED80)
T222C 000:094.600   I-Cache L1: 32 KB, 512 Sets, 32 Bytes/Line, 2-Way
T222C 000:094.610   CPU_WriteMem(4 bytes @ 0xE000ED84)
T222C 000:095.174   CPU_ReadMem(4 bytes @ 0xE000ED80)
T222C 000:095.737   D-Cache L1: 32 KB, 256 Sets, 32 Bytes/Line, 4-Way
T222C 000:096.303 - 51.461ms returns 0x6BA02477
T222C 000:096.315 JLINK_GetDLLVersion()
T222C 000:096.318 - 0.003ms returns 79206
T222C 000:096.392 JLINK_CORE_GetFound()
T222C 000:096.400 - 0.007ms returns 0xE0100FF
T222C 000:096.404 JLINK_GetDebugInfo(0x100 = JLINKARM_ROM_TABLE_ADDR_INDEX)
T222C 000:096.408   Value=0xE00FE000
T222C 000:096.413 - 0.008ms returns 0
T222C 000:096.423 JLINK_GetDebugInfo(0x100 = JLINKARM_ROM_TABLE_ADDR_INDEX)
T222C 000:096.426   Value=0xE00FE000
T222C 000:096.431 - 0.007ms returns 0
T222C 000:096.434 JLINK_GetDebugInfo(0x101 = JLINKARM_DEBUG_INFO_ETM_ADDR_INDEX)
T222C 000:096.437   Value=0xE0041000
T222C 000:096.441 - 0.007ms returns 0
T222C 000:096.446 JLINK_ReadMemEx(0xE0041FD0, 0x20 Bytes, Flags = 0x02000004)
T222C 000:096.466   CPU_ReadMem(32 bytes @ 0xE0041FD0)
T222C 000:097.121   Data:  04 00 00 00 00 00 00 00 00 00 00 00 00 00 00 00 ...
T222C 000:097.131 - 0.684ms returns 32 (0x20)
T222C 000:097.136 JLINK_GetDebugInfo(0x102 = JLINKARM_DEBUG_INFO_MTB_ADDR_INDEX)
T222C 000:097.155   Value=0x00000000
T222C 000:097.160 - 0.024ms returns 0
T222C 000:097.163 JLINK_GetDebugInfo(0x103 = JLINKARM_DEBUG_INFO_TPIU_ADDR_INDEX)
T222C 000:097.167   Value=0xE00F5000
T222C 000:097.171 - 0.007ms returns 0
T222C 000:097.174 JLINK_GetDebugInfo(0x104 = JLINKARM_DEBUG_INFO_ITM_ADDR_INDEX)
T222C 000:097.179   Value=0xE0000000
T222C 000:097.200 - 0.025ms returns 0
T222C 000:097.204 JLINK_GetDebugInfo(0x105 = JLINKARM_DEBUG_INFO_DWT_ADDR_INDEX)
T222C 000:097.207   Value=0xE0001000
T222C 000:097.211 - 0.007ms returns 0
T222C 000:097.214 JLINK_GetDebugInfo(0x106 = JLINKARM_DEBUG_INFO_FPB_ADDR_INDEX)
T222C 000:097.217   Value=0xE0002000
T222C 000:097.222 - 0.007ms returns 0
T222C 000:097.225 JLINK_GetDebugInfo(0x107 = JLINKARM_DEBUG_INFO_NVIC_ADDR_INDEX)
T222C 000:097.228   Value=0xE000E000
T222C 000:097.232 - 0.007ms returns 0
T222C 000:097.236 JLINK_GetDebugInfo(0x10C = JLINKARM_DEBUG_INFO_DBG_ADDR_INDEX)
T222C 000:097.239   Value=0xE000EDF0
T222C 000:097.243 - 0.007ms returns 0
T222C 000:097.248 JLINK_GetDebugInfo(0x01 = Unknown)
T222C 000:097.251   Value=0x00000001
T222C 000:097.255 - 0.008ms returns 0
T222C 000:097.259 JLINK_ReadMemU32(0xE000ED00, 0x1 Items)
T222C 000:097.265   CPU_ReadMem(4 bytes @ 0xE000ED00)
T222C 000:097.801   Data:  72 C2 1F 41
T222C 000:097.809   Debug reg: CPUID
T222C 000:097.814 - 0.554ms returns 1 (0x1)
T222C 000:097.819 JLINK_GetDebugInfo(0x10F = JLINKARM_DEBUG_INFO_HAS_CORTEX_M_SECURITY_EXT_INDEX)
T222C 000:097.822   Value=0x00000000
T222C 000:097.827 - 0.007ms returns 0
T222C 000:097.831 JLINK_HasError()
T222C 000:097.835 JLINK_SetResetType(JLINKARM_CM3_RESET_TYPE_NORMAL)
T222C 000:097.838 - 0.003ms returns JLINKARM_CM3_RESET_TYPE_NORMAL
T222C 000:097.842 JLINK_Reset()
T222C 000:097.854   CPU is running
T222C 000:097.860   CPU_WriteMem(4 bytes @ 0xE000EDF0)
T222C 000:098.468   CPU is running
T222C 000:098.478   CPU_WriteMem(4 bytes @ 0xE000EDFC)
T222C 000:099.068   Reset: Halt core after reset via DEMCR.VC_CORERESET.
T222C 000:100.084   Reset: Reset device via AIRCR.SYSRESETREQ.
T222C 000:100.093   CPU is running
T222C 000:100.100   CPU_WriteMem(4 bytes @ 0xE000ED0C)
T222C 000:155.237   CPU_ReadMem(4 bytes @ 0xE000EDF0)
T222C 000:155.863   CPU_ReadMem(4 bytes @ 0xE000EDF0)
T222C 000:158.997   CPU_WriteMem(4 bytes @ 0xE000EDFC)
T222C 000:166.096   CPU_ReadMem(4 bytes @ 0xE000EDF0)
T222C 000:169.655   CPU_WriteMem(4 bytes @ 0xE0002000)
T222C 000:170.361   CPU_ReadMem(4 bytes @ 0xE000EDFC)
T222C 000:171.041   CPU_ReadMem(4 bytes @ 0xE0001000)
T222C 000:171.933 - 74.089ms
T222C 000:171.947 JLINK_HasError()
T222C 000:172.017 JLINK_ReadReg(R15 (PC))
T222C 000:172.028 - 0.014ms returns 0x080002E4
T222C 000:172.033 JLINK_ReadReg(XPSR)
T222C 000:172.036 - 0.003ms returns 0x01000000
T222C 000:172.040 JLINK_Halt()
T222C 000:172.043 - 0.003ms returns 0x00
T222C 000:172.047 JLINK_ReadMemU32(0xE000EDF0, 0x1 Items)
T222C 000:172.055   CPU_ReadMem(4 bytes @ 0xE000EDF0)
T222C 000:172.644   Data:  03 00 03 00
T222C 000:172.653   Debug reg: DHCSR
T222C 000:172.658 - 0.610ms returns 1 (0x1)
T222C 000:172.667 JLINK_WriteU32_64(0xE000EDF0, 0xA05F0003)
T222C 000:172.670   Debug reg: DHCSR
T222C 000:172.910   CPU_WriteMem(4 bytes @ 0xE000EDF0)
T222C 000:173.571 - 0.904ms returns 0 (0x00000000)
T222C 000:173.579 JLINK_WriteU32_64(0xE000EDFC, 0x01000000)
T222C 000:173.583   Debug reg: DEMCR
T222C 000:173.591   CPU_WriteMem(4 bytes @ 0xE000EDFC)
T222C 000:174.199 - 0.619ms returns 0 (0x00000000)
T222C 000:174.237 JLINK_GetHWStatus(...)
T222C 000:174.766 - 0.529ms returns 0
T222C 000:174.791 JLINK_GetNumBPUnits(Type = 0xFFFFFF00)
T222C 000:174.795 - 0.004ms returns 0x08
T222C 000:174.799 JLINK_GetNumBPUnits(Type = 0xF0)
T222C 000:174.802 - 0.003ms returns 0x2000
T222C 000:174.805 JLINK_GetNumWPUnits()
T222C 000:174.808 - 0.002ms returns 4
T222C 000:174.818 JLINK_GetSpeed()
T222C 000:174.822 - 0.003ms returns 6000
T222C 000:174.829 JLINK_ReadMemU32(0xE000E004, 0x1 Items)
T222C 000:174.836   CPU_ReadMem(4 bytes @ 0xE000E004)
T222C 000:175.437   Data:  05 00 00 00
T222C 000:175.446 - 0.617ms returns 1 (0x1)
T222C 000:175.451 JLINK_ReadMemU32(0xE000E004, 0x1 Items)
T222C 000:175.458   CPU_ReadMem(4 bytes @ 0xE000E004)
T222C 000:176.102   Data:  05 00 00 00
T222C 000:176.111 - 0.659ms returns 1 (0x1)
T222C 000:176.116 JLINK_WriteMemEx(0xE0001000, 0x0000001C Bytes, Flags = 0x02000004)
T222C 000:176.122   Data:  01 00 00 00 00 00 00 00 00 00 00 00 00 00 00 00 ...
T222C 000:176.133   CPU_WriteMem(28 bytes @ 0xE0001000)
T222C 000:176.882 - 0.765ms returns 0x1C
T222C 000:176.891 JLINK_HasError()
T222C 000:176.896 JLINK_ReadReg(R15 (PC))
T222C 000:176.901 - 0.005ms returns 0x080002E4
T222C 000:176.905 JLINK_ReadReg(XPSR)
T222C 000:176.908 - 0.003ms returns 0x01000000
T222C 000:180.489 JLINK_ReadMemEx(0xE0001004, 0x4 Bytes, Flags = 0x02000000)
T222C 000:180.500   Data:  00 00 00 00
T222C 000:180.505   Debug reg: DWT_CYCCNT
T222C 000:180.509 - 0.020ms returns 4 (0x4)
T222C 000:299.802 JLINK_HasError()
T222C 000:299.828 JLINK_SetResetType(JLINKARM_CM3_RESET_TYPE_NORMAL)
T222C 000:299.833 - 0.005ms returns JLINKARM_CM3_RESET_TYPE_NORMAL
T222C 000:299.837 JLINK_Reset()
T222C 000:299.850   CPU_WriteMem(4 bytes @ 0xE000EDF0)
T222C 000:300.451   CPU_WriteMem(4 bytes @ 0xE000EDFC)
T222C 000:301.108   Reset: Halt core after reset via DEMCR.VC_CORERESET.
T222C 000:302.189   Reset: Reset device via AIRCR.SYSRESETREQ.
T222C 000:302.195   CPU_WriteMem(4 bytes @ 0xE000ED0C)
T222C 000:357.709   CPU_ReadMem(4 bytes @ 0xE000EDF0)
T222C 000:358.297   CPU_ReadMem(4 bytes @ 0xE000EDF0)
T222C 000:359.128   CPU_WriteMem(4 bytes @ 0xE000EDFC)
T222C 000:365.944   CPU_ReadMem(4 bytes @ 0xE000EDF0)
T222C 000:369.813   CPU_WriteMem(4 bytes @ 0xE0002000)
T222C 000:370.514   CPU_ReadMem(4 bytes @ 0xE000EDFC)
T222C 000:371.207   CPU_ReadMem(4 bytes @ 0xE0001000)
T222C 000:372.011 - 72.174ms
T222C 000:372.053 JLINK_HasError()
T222C 000:372.127 JLINK_ReadReg(R15 (PC))
T222C 000:372.137 - 0.011ms returns 0x080002E4
T222C 000:372.142 JLINK_ReadReg(XPSR)
T222C 000:372.145 - 0.003ms returns 0x01000000
T222C 000:372.389 JLINK_ReadMemEx(0x080002E4, 0x3C Bytes, Flags = 0x02000000)
T222C 000:372.400   CPU_ReadMem(128 bytes @ 0x080002C0)
T222C 000:373.651    -- Updating C cache (128 bytes @ 0x080002C0)
T222C 000:373.666    -- Read from C cache (60 bytes @ 0x080002E4)
T222C 000:373.672   Data:  06 48 80 47 06 48 00 47 FE E7 FE E7 FE E7 FE E7 ...
T222C 000:373.677 - 1.287ms returns 60 (0x3C)
T222C 000:373.681 JLINK_ReadMemEx(0x080002E4, 0x2 Bytes, Flags = 0x02000000)
T222C 000:373.685    -- Read from C cache (2 bytes @ 0x080002E4)
T222C 000:373.690   Data:  06 48
T222C 000:373.694 - 0.012ms returns 2 (0x2)
T222C 000:373.735 JLINK_ReadMemEx(0x080002E6, 0x2 Bytes, Flags = 0x02000000)
T222C 000:373.739    -- Read from C cache (2 bytes @ 0x080002E6)
T222C 000:373.743   Data:  80 47
T222C 000:373.747 - 0.012ms returns 2 (0x2)
T222C 001:697.670 JLINK_HasError()
T222C 001:697.687 JLINK_ReadReg(R0)
T222C 001:698.359 - 0.671ms returns 0x00000000
T222C 001:698.365 JLINK_ReadReg(R1)
T222C 001:698.369 - 0.003ms returns 0x00000000
T222C 001:698.373 JLINK_ReadReg(R2)
T222C 001:698.376 - 0.003ms returns 0x00000000
T222C 001:698.379 JLINK_ReadReg(R3)
T222C 001:698.383 - 0.003ms returns 0x00000000
T222C 001:698.386 JLINK_ReadReg(R4)
T222C 001:698.390 - 0.003ms returns 0x00000000
T222C 001:698.393 JLINK_ReadReg(R5)
T222C 001:698.397 - 0.003ms returns 0x00000000
T222C 001:698.400 JLINK_ReadReg(R6)
T222C 001:698.403 - 0.003ms returns 0x00000000
T222C 001:698.407 JLINK_ReadReg(R7)
T222C 001:698.410 - 0.003ms returns 0x00000000
T222C 001:698.417 JLINK_ReadReg(R8)
T222C 001:698.421 - 0.006ms returns 0x00000000
T222C 001:698.424 JLINK_ReadReg(R9)
T222C 001:698.427 - 0.003ms returns 0x00000000
T222C 001:698.431 JLINK_ReadReg(R10)
T222C 001:698.434 - 0.003ms returns 0x00000000
T222C 001:698.438 JLINK_ReadReg(R11)
T222C 001:698.441 - 0.003ms returns 0x00000000
T222C 001:698.445 JLINK_ReadReg(R12)
T222C 001:698.448 - 0.003ms returns 0x00000000
T222C 001:698.452 JLINK_ReadReg(R13 (SP))
T222C 001:698.455 - 0.003ms returns 0x240012A8
T222C 001:698.459 JLINK_ReadReg(R14)
T222C 001:698.462 - 0.003ms returns 0xFFFFFFFF
T222C 001:698.466 JLINK_ReadReg(R15 (PC))
T222C 001:698.469 - 0.003ms returns 0x080002E4
T222C 001:698.473 JLINK_ReadReg(XPSR)
T222C 001:698.517 - 0.044ms returns 0x01000000
T222C 001:698.522 JLINK_ReadReg(MSP)
T222C 001:698.525 - 0.003ms returns 0x240012A8
T222C 001:698.529 JLINK_ReadReg(PSP)
T222C 001:698.532 - 0.003ms returns 0x00000000
T222C 001:698.536 JLINK_ReadReg(CFBP)
T222C 001:698.539 - 0.003ms returns 0x00000000
T222C 001:698.543 JLINK_ReadReg(FPSCR)
T222C 001:702.308 - 3.765ms returns 0x00000000
T222C 001:702.313 JLINK_ReadReg(FPS0)
T222C 001:702.317 - 0.003ms returns 0x00000000
T222C 001:702.321 JLINK_ReadReg(FPS1)
T222C 001:702.324 - 0.003ms returns 0x00000000
T222C 001:702.327 JLINK_ReadReg(FPS2)
T222C 001:702.331 - 0.003ms returns 0x00000000
T222C 001:702.334 JLINK_ReadReg(FPS3)
T222C 001:702.337 - 0.003ms returns 0x00000000
T222C 001:702.341 JLINK_ReadReg(FPS4)
T222C 001:702.344 - 0.003ms returns 0x00000000
T222C 001:702.348 JLINK_ReadReg(FPS5)
T222C 001:702.351 - 0.003ms returns 0x00000000
T222C 001:702.354 JLINK_ReadReg(FPS6)
T222C 001:702.358 - 0.003ms returns 0x00000000
T222C 001:702.361 JLINK_ReadReg(FPS7)
T222C 001:702.364 - 0.003ms returns 0x00000000
T222C 001:702.368 JLINK_ReadReg(FPS8)
T222C 001:702.371 - 0.003ms returns 0x00000000
T222C 001:702.374 JLINK_ReadReg(FPS9)
T222C 001:702.378 - 0.003ms returns 0x00000000
T222C 001:702.381 JLINK_ReadReg(FPS10)
T222C 001:702.384 - 0.003ms returns 0x00000000
T222C 001:702.388 JLINK_ReadReg(FPS11)
T222C 001:702.391 - 0.003ms returns 0x00000000
T222C 001:702.395 JLINK_ReadReg(FPS12)
T222C 001:702.398 - 0.003ms returns 0x00000000
T222C 001:702.401 JLINK_ReadReg(FPS13)
T222C 001:702.405 - 0.003ms returns 0x00000000
T222C 001:702.408 JLINK_ReadReg(FPS14)
T222C 001:702.411 - 0.003ms returns 0x00000000
T222C 001:702.415 JLINK_ReadReg(FPS15)
T222C 001:702.418 - 0.003ms returns 0xFFFFFFFF
T222C 001:702.421 JLINK_ReadReg(FPS16)
T222C 001:702.425 - 0.003ms returns 0x00000000
T222C 001:702.428 JLINK_ReadReg(FPS17)
T222C 001:702.431 - 0.003ms returns 0x00000000
T222C 001:702.435 JLINK_ReadReg(FPS18)
T222C 001:702.438 - 0.003ms returns 0x00000000
T222C 001:702.441 JLINK_ReadReg(FPS19)
T222C 001:702.445 - 0.003ms returns 0x00000000
T222C 001:702.448 JLINK_ReadReg(FPS20)
T222C 001:702.451 - 0.003ms returns 0x00000000
T222C 001:702.455 JLINK_ReadReg(FPS21)
T222C 001:702.458 - 0.003ms returns 0x00000000
T222C 001:702.461 JLINK_ReadReg(FPS22)
T222C 001:702.465 - 0.003ms returns 0x00000000
T222C 001:702.468 JLINK_ReadReg(FPS23)
T222C 001:702.471 - 0.003ms returns 0x00000000
T222C 001:702.475 JLINK_ReadReg(FPS24)
T222C 001:702.478 - 0.003ms returns 0x00000000
T222C 001:702.482 JLINK_ReadReg(FPS25)
T222C 001:702.485 - 0.003ms returns 0x00000000
T222C 001:702.488 JLINK_ReadReg(FPS26)
T222C 001:702.491 - 0.003ms returns 0x00000000
T222C 001:702.495 JLINK_ReadReg(FPS27)
T222C 001:702.498 - 0.003ms returns 0x00000000
T222C 001:702.502 JLINK_ReadReg(FPS28)
T222C 001:702.505 - 0.003ms returns 0x00000000
T222C 001:702.508 JLINK_ReadReg(FPS29)
T222C 001:702.512 - 0.003ms returns 0x00000000
T222C 001:702.515 JLINK_ReadReg(FPS30)
T222C 001:702.518 - 0.003ms returns 0x00000000
T222C 001:702.522 JLINK_ReadReg(FPS31)
T222C 001:702.525 - 0.003ms returns 0xFFFFFFFF
T222C 001:735.885 JLINK_ReadMemEx(0x24000DFC, 0x20 Bytes, Flags = 0x02000000)
T222C 001:735.928   CPU_ReadMem(128 bytes @ 0x24000DC0)
T222C 001:737.107    -- Updating C cache (128 bytes @ 0x24000DC0)
T222C 001:737.153    -- Read from C cache (32 bytes @ 0x24000DFC)
T222C 001:737.182   Data:  00 00 00 00 00 00 00 00 00 00 00 00 00 00 00 00 ...
T222C 001:737.208 - 1.323ms returns 32 (0x20)
T1830 001:820.370 JLINK_ReadMemEx(0x080002E4, 0x2 Bytes, Flags = 0x02000000)
T1830 001:820.394    -- Read from C cache (2 bytes @ 0x080002E4)
T1830 001:820.399   Data:  06 48
T1830 001:820.405 - 0.035ms returns 2 (0x2)
T1830 001:820.410 JLINK_HasError()
T1830 001:820.417 JLINK_SetBPEx(Addr = 0x08008064, Type = 0xFFFFFFF2)
T1830 001:820.424 - 0.007ms returns 0x00000001
T1830 001:820.428 JLINK_HasError()
T1830 001:820.431 JLINK_SetBPEx(Addr = 0x08008108, Type = 0xFFFFFFF2)
T1830 001:820.435 - 0.003ms returns 0x00000002
T1830 001:820.445 JLINK_HasError()
T1830 001:820.449 JLINK_HasError()
T1830 001:820.453 JLINK_Go()
T1830 001:820.464   CPU_WriteMem(4 bytes @ 0xE0002000)
T1830 001:821.030   CPU_WriteMem(4 bytes @ 0xE0002000)
T1830 001:821.689   CPU_ReadMem(4 bytes @ 0xE0001000)
T1830 001:822.277   CPU_WriteMem(4 bytes @ 0xE0002008)
T1830 001:822.287   CPU_WriteMem(4 bytes @ 0xE000200C)
T1830 001:822.291   CPU_WriteMem(4 bytes @ 0xE0002010)
T1830 001:822.312   CPU_WriteMem(4 bytes @ 0xE0002014)
T1830 001:822.317   CPU_WriteMem(4 bytes @ 0xE0002018)
T1830 001:822.322   CPU_WriteMem(4 bytes @ 0xE000201C)
T1830 001:822.327   CPU_WriteMem(4 bytes @ 0xE0002020)
T1830 001:822.331   CPU_WriteMem(4 bytes @ 0xE0002024)
T1830 001:823.866   CPU_WriteMem(4 bytes @ 0xE0001004)
T1830 001:825.893   Memory map 'after startup completion point' is active
T1830 001:825.925 - 5.471ms
T1830 001:926.077 JLINK_HasError()
T1830 001:926.144 JLINK_IsHalted()
T1830 001:929.257 - 3.110ms returns TRUE
T1830 001:929.316 JLINK_HasError()
T1830 001:929.335 JLINK_Halt()
T1830 001:929.351 - 0.015ms returns 0x00
T1830 001:929.513 JLINK_IsHalted()
T1830 001:929.553 - 0.039ms returns TRUE
T1830 001:929.572 JLINK_IsHalted()
T1830 001:929.586 - 0.014ms returns TRUE
T1830 001:929.602 JLINK_IsHalted()
T1830 001:929.616 - 0.013ms returns TRUE
T1830 001:929.634 JLINK_HasError()
T1830 001:929.654 JLINK_ReadReg(R15 (PC))
T1830 001:929.679 - 0.024ms returns 0x08008064
T1830 001:929.696 JLINK_ReadReg(XPSR)
T1830 001:929.712 - 0.015ms returns 0x61000000
T1830 001:929.737 JLINK_HasError()
T1830 001:929.754 JLINK_ClrBPEx(BPHandle = 0x00000001)
T1830 001:929.771 - 0.016ms returns 0x00
T1830 001:929.787 JLINK_HasError()
T1830 001:929.804 JLINK_ClrBPEx(BPHandle = 0x00000002)
T1830 001:929.819 - 0.015ms returns 0x00
T1830 001:929.835 JLINK_HasError()
T1830 001:929.851 JLINK_HasError()
T1830 001:929.869 JLINK_ReadMemU32(0xE000ED30, 0x1 Items)
T1830 001:929.900   CPU_ReadMem(4 bytes @ 0xE000ED30)
T1830 001:930.792   Data:  02 00 00 00
T1830 001:930.834 - 0.963ms returns 1 (0x1)
T1830 001:930.858 JLINK_ReadMemU32(0xE0001028, 0x1 Items)
T1830 001:930.890   CPU_ReadMem(4 bytes @ 0xE0001028)
T1830 001:931.799   Data:  00 00 00 00
T1830 001:931.842   Debug reg: DWT_FUNC[0]
T1830 001:931.864 - 1.005ms returns 1 (0x1)
T1830 001:931.889 JLINK_ReadMemU32(0xE0001038, 0x1 Items)
T1830 001:931.920   CPU_ReadMem(4 bytes @ 0xE0001038)
T1830 001:932.827   Data:  00 02 00 00
T1830 001:932.869   Debug reg: DWT_FUNC[1]
T1830 001:932.891 - 1.002ms returns 1 (0x1)
T1830 001:932.915 JLINK_ReadMemU32(0xE0001048, 0x1 Items)
T1830 001:932.947   CPU_ReadMem(4 bytes @ 0xE0001048)
T1830 001:933.763   Data:  00 00 00 00
T1830 001:933.788   Debug reg: DWT_FUNC[2]
T1830 001:933.808 - 0.893ms returns 1 (0x1)
T1830 001:933.828 JLINK_ReadMemU32(0xE0001058, 0x1 Items)
T1830 001:933.849   CPU_ReadMem(4 bytes @ 0xE0001058)
T1830 001:934.662   Data:  00 00 00 00
T1830 001:934.675   Debug reg: DWT_FUNC[3]
T1830 001:934.679 - 0.852ms returns 1 (0x1)
T1830 001:934.710 JLINK_HasError()
T1830 001:934.714 JLINK_ReadReg(R0)
T1830 001:934.718 - 0.004ms returns 0x08008065
T1830 001:934.721 JLINK_ReadReg(R1)
T1830 001:934.725 - 0.003ms returns 0x240012A8
T1830 001:934.728 JLINK_ReadReg(R2)
T1830 001:934.731 - 0.003ms returns 0x00000000
T1830 001:934.735 JLINK_ReadReg(R3)
T1830 001:934.738 - 0.003ms returns 0x08007EBD
T1830 001:934.741 JLINK_ReadReg(R4)
T1830 001:934.744 - 0.003ms returns 0x08008324
T1830 001:934.748 JLINK_ReadReg(R5)
T1830 001:934.751 - 0.003ms returns 0x08008324
T1830 001:934.754 JLINK_ReadReg(R6)
T1830 001:934.757 - 0.003ms returns 0x00000000
T1830 001:934.761 JLINK_ReadReg(R7)
T1830 001:934.764 - 0.003ms returns 0x00000000
T1830 001:934.767 JLINK_ReadReg(R8)
T1830 001:934.770 - 0.003ms returns 0x00000000
T1830 001:934.774 JLINK_ReadReg(R9)
T1830 001:934.777 - 0.003ms returns 0x00000000
T1830 001:934.780 JLINK_ReadReg(R10)
T1830 001:934.783 - 0.003ms returns 0x00000000
T1830 001:934.791 JLINK_ReadReg(R11)
T1830 001:934.798 - 0.011ms returns 0x00000000
T1830 001:934.803 JLINK_ReadReg(R12)
T1830 001:934.806 - 0.003ms returns 0x00000000
T1830 001:934.810 JLINK_ReadReg(R13 (SP))
T1830 001:934.813 - 0.003ms returns 0x240012A8
T1830 001:934.817 JLINK_ReadReg(R14)
T1830 001:934.820 - 0.003ms returns 0x0800040D
T1830 001:934.823 JLINK_ReadReg(R15 (PC))
T1830 001:934.826 - 0.003ms returns 0x08008064
T1830 001:934.830 JLINK_ReadReg(XPSR)
T1830 001:934.833 - 0.003ms returns 0x61000000
T1830 001:934.836 JLINK_ReadReg(MSP)
T1830 001:934.839 - 0.003ms returns 0x240012A8
T1830 001:934.843 JLINK_ReadReg(PSP)
T1830 001:934.846 - 0.003ms returns 0x00000000
T1830 001:934.849 JLINK_ReadReg(CFBP)
T1830 001:934.853 - 0.003ms returns 0x00000000
T1830 001:934.856 JLINK_ReadReg(FPSCR)
T1830 001:938.513 - 3.657ms returns 0x00000000
T1830 001:938.518 JLINK_ReadReg(FPS0)
T1830 001:938.522 - 0.003ms returns 0x00000000
T1830 001:938.526 JLINK_ReadReg(FPS1)
T1830 001:938.529 - 0.003ms returns 0x00000000
T1830 001:938.532 JLINK_ReadReg(FPS2)
T1830 001:938.535 - 0.003ms returns 0x00000000
T1830 001:938.539 JLINK_ReadReg(FPS3)
T1830 001:938.542 - 0.003ms returns 0x00000000
T1830 001:938.545 JLINK_ReadReg(FPS4)
T1830 001:938.549 - 0.003ms returns 0x00000000
T1830 001:938.552 JLINK_ReadReg(FPS5)
T1830 001:938.555 - 0.003ms returns 0x00000000
T1830 001:938.558 JLINK_ReadReg(FPS6)
T1830 001:938.562 - 0.003ms returns 0x00000000
T1830 001:938.565 JLINK_ReadReg(FPS7)
T1830 001:938.568 - 0.003ms returns 0x00000000
T1830 001:938.572 JLINK_ReadReg(FPS8)
T1830 001:938.575 - 0.003ms returns 0x00000000
T1830 001:938.578 JLINK_ReadReg(FPS9)
T1830 001:938.581 - 0.003ms returns 0x00000000
T1830 001:938.585 JLINK_ReadReg(FPS10)
T1830 001:938.588 - 0.003ms returns 0x00000000
T1830 001:938.591 JLINK_ReadReg(FPS11)
T1830 001:938.594 - 0.003ms returns 0x00000000
T1830 001:938.598 JLINK_ReadReg(FPS12)
T1830 001:938.601 - 0.003ms returns 0x00000000
T1830 001:938.604 JLINK_ReadReg(FPS13)
T1830 001:938.607 - 0.003ms returns 0x00000000
T1830 001:938.611 JLINK_ReadReg(FPS14)
T1830 001:938.614 - 0.003ms returns 0x00000000
T1830 001:938.617 JLINK_ReadReg(FPS15)
T1830 001:938.620 - 0.003ms returns 0xFFFFFFFF
T1830 001:938.624 JLINK_ReadReg(FPS16)
T1830 001:938.627 - 0.003ms returns 0x00000000
T1830 001:938.630 JLINK_ReadReg(FPS17)
T1830 001:938.633 - 0.003ms returns 0x00000000
T1830 001:938.637 JLINK_ReadReg(FPS18)
T1830 001:938.640 - 0.003ms returns 0x00000000
T1830 001:938.643 JLINK_ReadReg(FPS19)
T1830 001:938.647 - 0.003ms returns 0x00000000
T1830 001:938.650 JLINK_ReadReg(FPS20)
T1830 001:938.653 - 0.003ms returns 0x00000000
T1830 001:938.656 JLINK_ReadReg(FPS21)
T1830 001:938.660 - 0.003ms returns 0x00000000
T1830 001:938.663 JLINK_ReadReg(FPS22)
T1830 001:938.666 - 0.003ms returns 0x00000000
T1830 001:938.670 JLINK_ReadReg(FPS23)
T1830 001:938.673 - 0.003ms returns 0x00000000
T1830 001:938.676 JLINK_ReadReg(FPS24)
T1830 001:938.679 - 0.003ms returns 0x00000000
T1830 001:938.683 JLINK_ReadReg(FPS25)
T1830 001:938.686 - 0.003ms returns 0x00000000
T1830 001:938.689 JLINK_ReadReg(FPS26)
T1830 001:938.692 - 0.003ms returns 0x00000000
T1830 001:938.696 JLINK_ReadReg(FPS27)
T1830 001:938.699 - 0.003ms returns 0x00000000
T1830 001:938.702 JLINK_ReadReg(FPS28)
T1830 001:938.705 - 0.003ms returns 0x00000000
T1830 001:938.709 JLINK_ReadReg(FPS29)
T1830 001:938.712 - 0.003ms returns 0x00000000
T1830 001:938.715 JLINK_ReadReg(FPS30)
T1830 001:938.718 - 0.003ms returns 0x00000000
T1830 001:938.722 JLINK_ReadReg(FPS31)
T1830 001:938.725 - 0.003ms returns 0xFFFFFFFF
T222C 001:940.435 JLINK_ReadMemEx(0x24000DFC, 0x20 Bytes, Flags = 0x02000000)
T222C 001:940.452   CPU_ReadMem(128 bytes @ 0x24000DC0)
T222C 001:941.843    -- Updating C cache (128 bytes @ 0x24000DC0)
T222C 001:941.852    -- Read from C cache (32 bytes @ 0x24000DFC)
T222C 001:941.857   Data:  00 00 00 00 00 00 00 00 00 00 00 00 00 00 00 00 ...
T222C 001:941.861 - 1.426ms returns 32 (0x20)
T1830 009:385.432 JLINK_ReadMemEx(0x08008064, 0x2 Bytes, Flags = 0x02000000)
T1830 009:385.464   CPU_ReadMem(64 bytes @ 0x08008040)
T1830 009:386.381    -- Updating C cache (64 bytes @ 0x08008040)
T1830 009:386.387    -- Read from C cache (2 bytes @ 0x08008064)
T1830 009:386.392   Data:  F9 F7
T1830 009:386.397 - 0.965ms returns 2 (0x2)
T1830 009:386.409 JLINK_HasError()
T1830 009:386.414 JLINK_SetBPEx(Addr = 0x08008108, Type = 0xFFFFFFF2)
T1830 009:386.419 - 0.005ms returns 0x00000003
T1830 009:386.423 JLINK_HasError()
T1830 009:386.427 JLINK_HasError()
T1830 009:386.431 JLINK_Go()
T1830 009:387.151   CPU_WriteMem(4 bytes @ 0xE0002000)
T1830 009:387.822   CPU_ReadMem(4 bytes @ 0xE0001000)
T1830 009:388.495   CPU_WriteMem(4 bytes @ 0xE0002008)
T1830 009:388.509   CPU_WriteMem(4 bytes @ 0xE000200C)
T1830 009:390.200 - 3.770ms
T1830 009:490.832 JLINK_HasError()
T1830 009:490.902 JLINK_IsHalted()
T1830 009:491.833 - 0.928ms returns FALSE
T1830 009:592.551 JLINK_HasError()
T1830 009:592.622 JLINK_IsHalted()
T1830 009:593.646 - 1.021ms returns FALSE
T1830 009:694.225 JLINK_HasError()
T1830 009:694.294 JLINK_IsHalted()
T1830 009:694.991 - 0.696ms returns FALSE
T1830 009:795.936 JLINK_HasError()
T1830 009:795.991 JLINK_IsHalted()
T1830 009:796.600 - 0.609ms returns FALSE
T1830 009:896.727 JLINK_HasError()
T1830 009:896.787 JLINK_HasError()
T1830 009:896.809 JLINK_ReadMemU32(0xE0001004, 0x1 Items)
T1830 009:896.859   CPU_ReadMem(4 bytes @ 0xE0001004)
T1830 009:897.667   Data:  CF DF 1C 0F
T1830 009:897.710   Debug reg: DWT_CYCCNT
T1830 009:897.735 - 0.926ms returns 1 (0x1)
T222C 009:902.301 JLINK_ReadMemEx(0x24000DFC, 0x20 Bytes, Flags = 0x02000000)
T222C 009:902.317   CPU_ReadMem(32 bytes @ 0x24000DFC)
T222C 009:903.252   Data:  00 00 00 00 00 00 00 00 00 00 00 00 00 00 00 00 ...
T222C 009:903.268 - 0.967ms returns 32 (0x20)
T1830 009:905.372 JLINK_IsHalted()
T1830 009:906.041 - 0.668ms returns FALSE
T1830 010:006.805 JLINK_HasError()
T1830 010:006.869 JLINK_IsHalted()
T1830 010:007.618 - 0.746ms returns FALSE
T1830 010:108.456 JLINK_HasError()
T1830 010:108.477 JLINK_IsHalted()
T1830 010:109.147 - 0.669ms returns FALSE
T1830 010:209.612 JLINK_HasError()
T1830 010:209.639 JLINK_IsHalted()
T1830 010:210.485 - 0.845ms returns FALSE
T1830 010:311.277 JLINK_HasError()
T1830 010:311.350 JLINK_IsHalted()
T1830 010:312.355 - 1.003ms returns FALSE
T1830 010:413.035 JLINK_HasError()
T1830 010:413.094 JLINK_HasError()
T1830 010:413.110 JLINK_ReadMemU32(0xE0001004, 0x1 Items)
T1830 010:413.148   Data:  CF DF 1C 0F
T1830 010:413.168   Debug reg: DWT_CYCCNT
T1830 010:413.186 - 0.076ms returns 1 (0x1)
T222C 010:419.811 JLINK_ReadMemEx(0x24000DFC, 0x20 Bytes, Flags = 0x02000000)
T222C 010:419.857   CPU_ReadMem(32 bytes @ 0x24000DFC)
T222C 010:420.866   Data:  00 00 00 00 00 00 00 00 00 00 00 00 00 00 00 00 ...
T222C 010:420.910 - 1.099ms returns 32 (0x20)
T1830 010:426.615 JLINK_IsHalted()
T1830 010:427.366 - 0.750ms returns FALSE
T1830 010:527.699 JLINK_HasError()
T1830 010:527.780 JLINK_IsHalted()
T1830 010:528.728 - 0.945ms returns FALSE
T1830 010:629.411 JLINK_HasError()
T1830 010:629.482 JLINK_IsHalted()
T1830 010:630.532 - 1.047ms returns FALSE
T1830 010:731.678 JLINK_HasError()
T1830 010:731.727 JLINK_IsHalted()
T1830 010:732.602 - 0.874ms returns FALSE
T1830 010:832.852 JLINK_HasError()
T1830 010:832.923 JLINK_IsHalted()
T1830 010:833.977 - 1.051ms returns FALSE
T1830 010:934.569 JLINK_HasError()
T1830 010:934.639 JLINK_HasError()
T1830 010:934.660 JLINK_ReadMemU32(0xE0001004, 0x1 Items)
T1830 010:934.709   Data:  CF DF 1C 0F
T1830 010:934.734   Debug reg: DWT_CYCCNT
T1830 010:934.758 - 0.097ms returns 1 (0x1)
T222C 010:942.123 JLINK_ReadMemEx(0x24000DFC, 0x20 Bytes, Flags = 0x02000000)
T222C 010:942.192   CPU_ReadMem(32 bytes @ 0x24000DFC)
T222C 010:943.255   Data:  01 7F FF 7F B7 FF 00 1C 00 00 00 00 00 00 00 00 ...
T222C 010:943.302 - 1.179ms returns 32 (0x20)
T1830 010:951.835 JLINK_IsHalted()
T1830 010:952.634 - 0.797ms returns FALSE
T1830 011:053.636 JLINK_HasError()
T1830 011:053.702 JLINK_IsHalted()
T1830 011:057.274 - 3.570ms returns TRUE
T1830 011:057.321 JLINK_HasError()
T1830 011:057.341 JLINK_Halt()
T1830 011:057.358 - 0.016ms returns 0x00
T1830 011:057.376 JLINK_IsHalted()
T1830 011:057.392 - 0.015ms returns TRUE
T1830 011:057.410 JLINK_IsHalted()
T1830 011:057.426 - 0.015ms returns TRUE
T1830 011:057.444 JLINK_IsHalted()
T1830 011:057.460 - 0.015ms returns TRUE
T1830 011:057.479 JLINK_HasError()
T1830 011:057.499 JLINK_ReadReg(R15 (PC))
T1830 011:057.587 - 0.086ms returns 0x08008108
T1830 011:057.606 JLINK_ReadReg(XPSR)
T1830 011:057.623 - 0.017ms returns 0x61000000
T1830 011:057.649 JLINK_HasError()
T1830 011:057.668 JLINK_ClrBPEx(BPHandle = 0x00000003)
T1830 011:057.687 - 0.018ms returns 0x00
T1830 011:057.705 JLINK_HasError()
T1830 011:057.723 JLINK_HasError()
T1830 011:057.742 JLINK_ReadMemU32(0xE000ED30, 0x1 Items)
T1830 011:057.774   CPU_ReadMem(4 bytes @ 0xE000ED30)
T1830 011:058.654   Data:  02 00 00 00
T1830 011:058.700 - 0.957ms returns 1 (0x1)
T1830 011:058.727 JLINK_ReadMemU32(0xE0001028, 0x1 Items)
T1830 011:058.762   CPU_ReadMem(4 bytes @ 0xE0001028)
T1830 011:059.739   Data:  00 00 00 00
T1830 011:059.783   Debug reg: DWT_FUNC[0]
T1830 011:059.808 - 1.080ms returns 1 (0x1)
T1830 011:059.834 JLINK_ReadMemU32(0xE0001038, 0x1 Items)
T1830 011:059.869   CPU_ReadMem(4 bytes @ 0xE0001038)
T1830 011:060.883   Data:  00 02 00 00
T1830 011:060.927   Debug reg: DWT_FUNC[1]
T1830 011:060.951 - 1.117ms returns 1 (0x1)
T1830 011:060.977 JLINK_ReadMemU32(0xE0001048, 0x1 Items)
T1830 011:061.013   CPU_ReadMem(4 bytes @ 0xE0001048)
T1830 011:061.958   Data:  00 00 00 00
T1830 011:062.003   Debug reg: DWT_FUNC[2]
T1830 011:062.028 - 1.050ms returns 1 (0x1)
T1830 011:062.056 JLINK_ReadMemU32(0xE0001058, 0x1 Items)
T1830 011:062.091   CPU_ReadMem(4 bytes @ 0xE0001058)
T1830 011:062.942   Data:  00 00 00 00
T1830 011:062.965   Debug reg: DWT_FUNC[3]
T1830 011:062.975 - 0.920ms returns 1 (0x1)
T1830 011:063.017 JLINK_HasError()
T1830 011:063.021 JLINK_ReadReg(R0)
T1830 011:063.026 - 0.005ms returns 0x00000015
T1830 011:063.030 JLINK_ReadReg(R1)
T1830 011:063.033 - 0.003ms returns 0x4000A000
T1830 011:063.036 JLINK_ReadReg(R2)
T1830 011:063.040 - 0.003ms returns 0xFFFFFFFF
T1830 011:063.043 JLINK_ReadReg(R3)
T1830 011:063.046 - 0.003ms returns 0xFCFFFFFF
T1830 011:063.050 JLINK_ReadReg(R4)
T1830 011:063.053 - 0.003ms returns 0x00000014
T1830 011:063.056 JLINK_ReadReg(R5)
T1830 011:063.059 - 0.003ms returns 0x08008324
T1830 011:063.063 JLINK_ReadReg(R6)
T1830 011:063.066 - 0.003ms returns 0x00000000
T1830 011:063.069 JLINK_ReadReg(R7)
T1830 011:063.073 - 0.003ms returns 0x00000000
T1830 011:063.076 JLINK_ReadReg(R8)
T1830 011:063.079 - 0.003ms returns 0x00000000
T1830 011:063.082 JLINK_ReadReg(R9)
T1830 011:063.086 - 0.003ms returns 0x00000000
T1830 011:063.089 JLINK_ReadReg(R10)
T1830 011:063.092 - 0.003ms returns 0x00000000
T1830 011:063.096 JLINK_ReadReg(R11)
T1830 011:063.099 - 0.003ms returns 0x00000000
T1830 011:063.102 JLINK_ReadReg(R12)
T1830 011:063.105 - 0.003ms returns 0x00000008
T1830 011:063.109 JLINK_ReadReg(R13 (SP))
T1830 011:063.112 - 0.003ms returns 0x240012A8
T1830 011:063.115 JLINK_ReadReg(R14)
T1830 011:063.119 - 0.003ms returns 0x08000A11
T1830 011:063.122 JLINK_ReadReg(R15 (PC))
T1830 011:063.125 - 0.003ms returns 0x08008108
T1830 011:063.129 JLINK_ReadReg(XPSR)
T1830 011:063.132 - 0.003ms returns 0x61000000
T1830 011:063.135 JLINK_ReadReg(MSP)
T1830 011:063.138 - 0.003ms returns 0x240012A8
T1830 011:063.142 JLINK_ReadReg(PSP)
T1830 011:063.145 - 0.003ms returns 0x00000000
T1830 011:063.148 JLINK_ReadReg(CFBP)
T1830 011:063.152 - 0.003ms returns 0x04000000
T1830 011:063.155 JLINK_ReadReg(FPSCR)
T1830 011:067.131 - 3.974ms returns 0x00000000
T1830 011:067.154 JLINK_ReadReg(FPS0)
T1830 011:067.161 - 0.007ms returns 0x45800000
T1830 011:067.164 JLINK_ReadReg(FPS1)
T1830 011:067.168 - 0.003ms returns 0x4DEE6B28
T1830 011:067.171 JLINK_ReadReg(FPS2)
T1830 011:067.174 - 0.003ms returns 0x1DCD6500
T1830 011:067.181 JLINK_ReadReg(FPS3)
T1830 011:067.187 - 0.005ms returns 0x4DEE6B28
T1830 011:067.195 JLINK_ReadReg(FPS4)
T1830 011:067.198 - 0.003ms returns 0x4AF42400
T1830 011:067.202 JLINK_ReadReg(FPS5)
T1830 011:067.205 - 0.003ms returns 0x00000000
T1830 011:067.208 JLINK_ReadReg(FPS6)
T1830 011:067.212 - 0.003ms returns 0x00000000
T1830 011:067.215 JLINK_ReadReg(FPS7)
T1830 011:067.218 - 0.003ms returns 0x00000000
T1830 011:067.221 JLINK_ReadReg(FPS8)
T1830 011:067.225 - 0.003ms returns 0x00000000
T1830 011:067.228 JLINK_ReadReg(FPS9)
T1830 011:067.231 - 0.003ms returns 0x00000000
T1830 011:067.235 JLINK_ReadReg(FPS10)
T1830 011:067.238 - 0.003ms returns 0x00000000
T1830 011:067.241 JLINK_ReadReg(FPS11)
T1830 011:067.244 - 0.003ms returns 0x00000000
T1830 011:067.248 JLINK_ReadReg(FPS12)
T1830 011:067.251 - 0.003ms returns 0x00000000
T1830 011:067.254 JLINK_ReadReg(FPS13)
T1830 011:067.258 - 0.003ms returns 0x00000000
T1830 011:067.261 JLINK_ReadReg(FPS14)
T1830 011:067.264 - 0.003ms returns 0x00000000
T1830 011:067.267 JLINK_ReadReg(FPS15)
T1830 011:067.271 - 0.003ms returns 0xFFFFFFFF
T1830 011:067.274 JLINK_ReadReg(FPS16)
T1830 011:067.277 - 0.003ms returns 0x00000000
T1830 011:067.281 JLINK_ReadReg(FPS17)
T1830 011:067.284 - 0.003ms returns 0x00000000
T1830 011:067.287 JLINK_ReadReg(FPS18)
T1830 011:067.290 - 0.003ms returns 0x00000000
T1830 011:067.294 JLINK_ReadReg(FPS19)
T1830 011:067.297 - 0.003ms returns 0x00000000
T1830 011:067.300 JLINK_ReadReg(FPS20)
T1830 011:067.303 - 0.003ms returns 0x00000000
T1830 011:067.307 JLINK_ReadReg(FPS21)
T1830 011:067.310 - 0.003ms returns 0x00000000
T1830 011:067.313 JLINK_ReadReg(FPS22)
T1830 011:067.316 - 0.003ms returns 0x00000000
T1830 011:067.320 JLINK_ReadReg(FPS23)
T1830 011:067.323 - 0.003ms returns 0x00000000
T1830 011:067.326 JLINK_ReadReg(FPS24)
T1830 011:067.330 - 0.003ms returns 0x00000000
T1830 011:067.333 JLINK_ReadReg(FPS25)
T1830 011:067.336 - 0.003ms returns 0x00000000
T1830 011:067.339 JLINK_ReadReg(FPS26)
T1830 011:067.343 - 0.003ms returns 0x00000000
T1830 011:067.346 JLINK_ReadReg(FPS27)
T1830 011:067.349 - 0.003ms returns 0x00000000
T1830 011:067.353 JLINK_ReadReg(FPS28)
T1830 011:067.356 - 0.003ms returns 0x00000000
T1830 011:067.359 JLINK_ReadReg(FPS29)
T1830 011:067.362 - 0.003ms returns 0x00000000
T1830 011:067.366 JLINK_ReadReg(FPS30)
T1830 011:067.369 - 0.003ms returns 0x00000000
T1830 011:067.372 JLINK_ReadReg(FPS31)
T1830 011:067.376 - 0.003ms returns 0xFFFFFFFF
T222C 011:069.166 JLINK_ReadMemEx(0x24000DFC, 0x20 Bytes, Flags = 0x02000000)
T222C 011:069.186   CPU_ReadMem(128 bytes @ 0x24000DC0)
T222C 011:070.627    -- Updating C cache (128 bytes @ 0x24000DC0)
T222C 011:070.637    -- Read from C cache (32 bytes @ 0x24000DFC)
T222C 011:070.642   Data:  01 7F FF 80 07 FF 00 1C 00 00 00 00 00 00 00 00 ...
T222C 011:070.646 - 1.480ms returns 32 (0x20)
T1830 013:859.160 JLINK_ReadMemEx(0x08008108, 0x2 Bytes, Flags = 0x02000000)
T1830 013:859.203   CPU_ReadMem(64 bytes @ 0x08008100)
T1830 013:860.128    -- Updating C cache (64 bytes @ 0x08008100)
T1830 013:860.142    -- Read from C cache (2 bytes @ 0x08008108)
T1830 013:860.148   Data:  0E 48
T1830 013:860.162 - 1.002ms returns 2 (0x2)
T1830 013:860.167 JLINK_HasError()
T1830 013:860.172 JLINK_Step()
T1830 013:860.803    -- Read from C cache (2 bytes @ 0x08008108)
T1830 013:860.810   CPU_ReadMem(4 bytes @ 0xE000ED18)
T1830 013:861.508   CPU_WriteMem(4 bytes @ 0xE000ED18)
T1830 013:862.148   CPU_ReadMem(4 bytes @ 0xE000ED18)
T1830 013:862.700   CPU_WriteMem(4 bytes @ 0xE000ED18)
T1830 013:863.241   CPU_ReadMem(64 bytes @ 0x08008140)
T1830 013:864.133    -- Updating C cache (64 bytes @ 0x08008140)
T1830 013:864.161    -- Read from C cache (4 bytes @ 0x08008144)
T1830 013:864.172   -- Simulated
T1830 013:864.178 - 4.005ms returns 0
T1830 013:864.192 JLINK_HasError()
T1830 013:864.199 JLINK_ReadReg(R15 (PC))
T1830 013:864.213 - 0.015ms returns 0x0800810A
T1830 013:864.219 JLINK_ReadReg(XPSR)
T1830 013:864.223 - 0.004ms returns 0x61000000
T1830 013:864.247 JLINK_HasError()
T1830 013:864.252 JLINK_SetBPEx(Addr = 0x08008108, Type = 0xFFFFFFF2)
T1830 013:864.259 - 0.007ms returns 0x00000004
T1830 013:864.263 JLINK_HasError()
T1830 013:864.266 JLINK_HasError()
T1830 013:864.271 JLINK_Go()
T1830 013:864.281   CPU_WriteMem(4 bytes @ 0xE0002000)
T1830 013:864.917   CPU_ReadMem(4 bytes @ 0xE0001000)
T1830 013:865.531   CPU_WriteMem(4 bytes @ 0xE0001004)
T1830 013:867.791 - 3.518ms
T1830 013:968.050 JLINK_HasError()
T1830 013:968.068 JLINK_IsHalted()
T1830 013:968.687 - 0.619ms returns FALSE
T1830 014:069.692 JLINK_HasError()
T1830 014:069.760 JLINK_IsHalted()
T1830 014:070.666 - 0.903ms returns FALSE
T1830 014:171.466 JLINK_HasError()
T1830 014:171.538 JLINK_IsHalted()
T1830 014:172.456 - 0.915ms returns FALSE
T1830 014:272.580 JLINK_HasError()
T1830 014:272.649 JLINK_IsHalted()
T1830 014:273.616 - 0.964ms returns FALSE
T1830 014:374.309 JLINK_HasError()
T1830 014:374.388 JLINK_IsHalted()
T1830 014:375.334 - 0.943ms returns FALSE
T1830 014:476.214 JLINK_HasError()
T1830 014:476.237 JLINK_HasError()
T1830 014:476.241 JLINK_ReadMemU32(0xE0001004, 0x1 Items)
T1830 014:476.274   CPU_ReadMem(4 bytes @ 0xE0001004)
T1830 014:476.913   Data:  74 31 44 21
T1830 014:476.919   Debug reg: DWT_CYCCNT
T1830 014:476.923 - 0.682ms returns 1 (0x1)
T222C 014:478.628 JLINK_ReadMemEx(0x24000DFC, 0x20 Bytes, Flags = 0x02000000)
T222C 014:478.643   CPU_ReadMem(32 bytes @ 0x24000DFC)
T222C 014:479.429   Data:  01 7F FF 0A 88 01 00 1C 00 00 00 00 00 00 00 00 ...
T222C 014:479.438 - 0.810ms returns 32 (0x20)
T1830 014:482.164 JLINK_IsHalted()
T1830 014:482.763 - 0.599ms returns FALSE
T1830 014:583.103 JLINK_HasError()
T1830 014:583.174 JLINK_IsHalted()
T1830 014:584.155 - 0.978ms returns FALSE
T1830 014:685.130 JLINK_HasError()
T1830 014:685.201 JLINK_IsHalted()
T1830 014:686.093 - 0.890ms returns FALSE
T1830 014:787.207 JLINK_HasError()
T1830 014:787.285 JLINK_IsHalted()
T1830 014:788.199 - 0.911ms returns FALSE
T1830 014:889.064 JLINK_HasError()
T1830 014:889.098 JLINK_IsHalted()
T1830 014:889.909 - 0.816ms returns FALSE
T1830 014:990.570 JLINK_HasError()
T1830 014:990.638 JLINK_HasError()
T1830 014:990.660 JLINK_ReadMemU32(0xE0001004, 0x1 Items)
T1830 014:990.708   Data:  74 31 44 21
T1830 014:990.734   Debug reg: DWT_CYCCNT
T1830 014:990.757 - 0.097ms returns 1 (0x1)
T222C 014:996.428 JLINK_ReadMemEx(0x24000DFC, 0x20 Bytes, Flags = 0x02000000)
T222C 014:996.443   CPU_ReadMem(32 bytes @ 0x24000DFC)
T222C 014:997.324   Data:  01 7F FF FF A8 01 00 1C 00 00 00 00 00 00 00 00 ...
T222C 014:997.333 - 0.904ms returns 32 (0x20)
T1830 015:001.379 JLINK_IsHalted()
T1830 015:002.339 - 0.959ms returns FALSE
T1830 015:103.286 JLINK_HasError()
T1830 015:103.335 JLINK_IsHalted()
T1830 015:104.236 - 0.899ms returns FALSE
T1830 015:204.484 JLINK_HasError()
T1830 015:204.556 JLINK_IsHalted()
T1830 015:205.437 - 0.879ms returns FALSE
T1830 015:306.173 JLINK_HasError()
T1830 015:306.243 JLINK_IsHalted()
T1830 015:307.097 - 0.851ms returns FALSE
T1830 015:407.977 JLINK_HasError()
T1830 015:408.003 JLINK_IsHalted()
T1830 015:408.853 - 0.848ms returns FALSE
T1830 015:509.619 JLINK_HasError()
T1830 015:509.685 JLINK_HasError()
T1830 015:509.706 JLINK_ReadMemU32(0xE0001004, 0x1 Items)
T1830 015:509.755   Data:  74 31 44 21
T1830 015:509.780   Debug reg: DWT_CYCCNT
T1830 015:509.804 - 0.097ms returns 1 (0x1)
T222C 015:514.996 JLINK_ReadMemEx(0x24000DFC, 0x20 Bytes, Flags = 0x02000000)
T222C 015:515.039   CPU_ReadMem(32 bytes @ 0x24000DFC)
T222C 015:516.150   Data:  01 7F FF 07 78 02 00 1C 00 00 00 00 00 00 00 00 ...
T222C 015:516.167 - 1.173ms returns 32 (0x20)
T1830 015:521.793 JLINK_IsHalted()
T1830 015:522.658 - 0.864ms returns FALSE
T1830 015:623.326 JLINK_HasError()
T1830 015:623.396 JLINK_IsHalted()
T1830 015:624.461 - 1.062ms returns FALSE
T1830 015:725.170 JLINK_HasError()
T1830 015:725.251 JLINK_IsHalted()
T1830 015:726.148 - 0.894ms returns FALSE
T1830 015:826.770 JLINK_HasError()
T1830 015:826.825 JLINK_IsHalted()
T1830 015:827.500 - 0.674ms returns FALSE
T1830 015:927.794 JLINK_HasError()
T1830 015:927.826 JLINK_IsHalted()
T1830 015:928.580 - 0.753ms returns FALSE
T1830 016:029.587 JLINK_HasError()
T1830 016:029.657 JLINK_HasError()
T1830 016:029.678 JLINK_ReadMemU32(0xE0001004, 0x1 Items)
T1830 016:029.726   Data:  74 31 44 21
T1830 016:029.752   Debug reg: DWT_CYCCNT
T1830 016:029.775 - 0.097ms returns 1 (0x1)
T222C 016:035.317 JLINK_ReadMemEx(0x24000DFC, 0x20 Bytes, Flags = 0x02000000)
T222C 016:035.338   CPU_ReadMem(32 bytes @ 0x24000DFC)
T222C 016:036.527   Data:  01 7F FF 06 D8 03 00 1C 00 00 00 00 00 00 00 00 ...
T222C 016:036.548 - 1.230ms returns 32 (0x20)
T1830 016:042.703 JLINK_IsHalted()
T1830 016:043.345 - 0.640ms returns FALSE
T1830 016:144.026 JLINK_HasError()
T1830 016:144.096 JLINK_IsHalted()
T1830 016:145.038 - 0.940ms returns FALSE
T1830 016:245.362 JLINK_HasError()
T1830 016:245.403 JLINK_IsHalted()
T1830 016:246.203 - 0.800ms returns FALSE
T1830 016:346.956 JLINK_HasError()
T1830 016:347.037 JLINK_IsHalted()
T1830 016:347.977 - 0.936ms returns FALSE
T1830 016:448.593 JLINK_HasError()
T1830 016:448.658 JLINK_IsHalted()
T1830 016:449.641 - 0.979ms returns FALSE
T1830 016:549.937 JLINK_HasError()
T1830 016:550.007 JLINK_HasError()
T1830 016:550.028 JLINK_ReadMemU32(0xE0001004, 0x1 Items)
T1830 016:550.077   Data:  74 31 44 21
T1830 016:550.102   Debug reg: DWT_CYCCNT
T1830 016:550.126 - 0.097ms returns 1 (0x1)
T222C 016:558.458 JLINK_ReadMemEx(0x24000DFC, 0x20 Bytes, Flags = 0x02000000)
T222C 016:558.526   CPU_ReadMem(32 bytes @ 0x24000DFC)
T222C 016:559.567   Data:  01 7F FF 10 D8 03 00 1C 00 00 00 00 00 00 00 00 ...
T222C 016:559.614 - 1.156ms returns 32 (0x20)
T1830 016:565.440 JLINK_IsHalted()
T1830 016:566.297 - 0.856ms returns FALSE
T1830 016:667.023 JLINK_HasError()
T1830 016:667.094 JLINK_IsHalted()
T1830 016:668.025 - 0.929ms returns FALSE
T1830 016:768.692 JLINK_HasError()
T1830 016:768.762 JLINK_IsHalted()
T1830 016:769.734 - 0.969ms returns FALSE
T1830 016:870.687 JLINK_HasError()
T1830 016:870.758 JLINK_IsHalted()
T1830 016:871.666 - 0.906ms returns FALSE
T1830 016:972.354 JLINK_HasError()
T1830 016:972.372 JLINK_IsHalted()
T1830 016:973.020 - 0.647ms returns FALSE
T1830 017:073.166 JLINK_HasError()
T1830 017:073.237 JLINK_HasError()
T1830 017:073.258 JLINK_ReadMemU32(0xE0001004, 0x1 Items)
T1830 017:073.306   Data:  74 31 44 21
T1830 017:073.332   Debug reg: DWT_CYCCNT
T1830 017:073.355 - 0.097ms returns 1 (0x1)
T222C 017:079.470 JLINK_ReadMemEx(0x24000DFC, 0x20 Bytes, Flags = 0x02000000)
T222C 017:079.488   CPU_ReadMem(32 bytes @ 0x24000DFC)
T222C 017:080.648   Data:  01 7F FF 05 98 09 00 1C 00 00 00 00 00 00 00 00 ...
T222C 017:080.662 - 1.192ms returns 32 (0x20)
T1830 017:083.957 JLINK_IsHalted()
T1830 017:084.705 - 0.747ms returns FALSE
T1830 017:184.987 JLINK_HasError()
T1830 017:185.055 JLINK_IsHalted()
T1830 017:185.961 - 0.903ms returns FALSE
T1830 017:286.748 JLINK_HasError()
T1830 017:286.828 JLINK_IsHalted()
T1830 017:287.775 - 0.944ms returns FALSE
T1830 017:388.861 JLINK_HasError()
T1830 017:388.927 JLINK_IsHalted()
T1830 017:389.924 - 0.994ms returns FALSE
T1830 017:490.757 JLINK_HasError()
T1830 017:490.831 JLINK_IsHalted()
T1830 017:491.743 - 0.910ms returns FALSE
T1830 017:592.619 JLINK_HasError()
T1830 017:592.685 JLINK_HasError()
T1830 017:592.709 JLINK_ReadMemU32(0xE0001004, 0x1 Items)
T1830 017:592.760   Data:  74 31 44 21
T1830 017:592.766   Debug reg: DWT_CYCCNT
T1830 017:592.770 - 0.062ms returns 1 (0x1)
T222C 017:596.331 JLINK_ReadMemEx(0x24000DFC, 0x20 Bytes, Flags = 0x02000000)
T222C 017:596.354   CPU_ReadMem(32 bytes @ 0x24000DFC)
T222C 017:597.422   Data:  01 7F FF 08 F8 0D 00 1C 00 00 00 00 00 00 00 00 ...
T222C 017:597.438 - 1.107ms returns 32 (0x20)
T1830 017:601.906 JLINK_IsHalted()
T1830 017:602.579 - 0.672ms returns FALSE
T1830 017:703.129 JLINK_HasError()
T1830 017:703.198 JLINK_IsHalted()
T1830 017:704.316 - 1.104ms returns FALSE
T1830 017:804.914 JLINK_HasError()
T1830 017:804.986 JLINK_IsHalted()
T1830 017:805.786 - 0.798ms returns FALSE
T1830 017:906.600 JLINK_HasError()
T1830 017:906.636 JLINK_IsHalted()
T1830 017:907.497 - 0.860ms returns FALSE
T1830 018:007.702 JLINK_HasError()
T1830 018:007.768 JLINK_IsHalted()
T1830 018:008.638 - 0.867ms returns FALSE
T1830 018:109.442 JLINK_HasError()
T1830 018:109.497 JLINK_HasError()
T1830 018:109.512 JLINK_ReadMemU32(0xE0001004, 0x1 Items)
T1830 018:109.548   Data:  74 31 44 21
T1830 018:109.566   Debug reg: DWT_CYCCNT
T1830 018:109.583 - 0.070ms returns 1 (0x1)
T222C 018:115.394 JLINK_ReadMemEx(0x24000DFC, 0x20 Bytes, Flags = 0x02000000)
T222C 018:115.452   CPU_ReadMem(32 bytes @ 0x24000DFC)
T222C 018:116.500   Data:  01 7F FF 11 E8 09 00 1C 00 00 00 00 00 00 00 00 ...
T222C 018:116.541 - 1.147ms returns 32 (0x20)
T1830 018:123.472 JLINK_IsHalted()
T1830 018:124.391 - 0.917ms returns FALSE
T1830 018:224.689 JLINK_HasError()
T1830 018:224.710 JLINK_IsHalted()
T1830 018:225.412 - 0.701ms returns FALSE
T1830 018:325.552 JLINK_HasError()
T1830 018:325.623 JLINK_IsHalted()
T1830 018:326.664 - 1.040ms returns FALSE
T1830 018:427.235 JLINK_HasError()
T1830 018:427.305 JLINK_IsHalted()
T1830 018:428.174 - 0.866ms returns FALSE
T1830 018:529.002 JLINK_HasError()
T1830 018:529.074 JLINK_IsHalted()
T1830 018:529.981 - 0.905ms returns FALSE
T1830 018:630.772 JLINK_HasError()
T1830 018:630.852 JLINK_HasError()
T1830 018:630.873 JLINK_ReadMemU32(0xE0001004, 0x1 Items)
T1830 018:630.924   Data:  74 31 44 21
T1830 018:630.951   Debug reg: DWT_CYCCNT
T1830 018:630.975 - 0.102ms returns 1 (0x1)
T222C 018:636.525 JLINK_ReadMemEx(0x24000DFC, 0x20 Bytes, Flags = 0x02000000)
T222C 018:636.550   CPU_ReadMem(32 bytes @ 0x24000DFC)
T222C 018:637.464   Data:  01 7F FF 07 A8 01 00 1C 00 00 00 00 00 00 00 00 ...
